
**** 09/26/20 11:29:39 *********** Evaluation PSpice (Nov 1999) **************

 * C:\Users\User\Desktop\lab simulate file\exp 02.sch


 ****     CIRCUIT DESCRIPTION


******************************************************************************




* Schematics Version 9.1 - Web Update 1
* Sat Sep 26 11:29:35 2020



** Analysis setup **
.OP 


* From [PSPICE NETLIST] section of pspiceev.ini:
.lib "nom.lib"

.INC "exp 02.net"

**** INCLUDING "exp 02.net" ****
* Schematics Netlist *



R_R2         0 $N_0001  47  
R_R3         0 $N_0001  100  
R_R1         $N_0002 $N_0001  100  
V_E         $N_0002 0 3v

**** RESUMING "exp 02.cir" ****
.INC "exp 02.als"



**** INCLUDING "exp 02.als" ****
* Schematics Aliases *

.ALIASES
R_R2            R2(1=0 2=$N_0001 )
R_R3            R3(1=0 2=$N_0001 )
R_R1            R1(1=$N_0002 2=$N_0001 )
V_E             E(+=$N_0002 -=0 )
.ENDALIASES


**** RESUMING "exp 02.cir" ****
.probe


.END

**** 09/26/20 11:29:39 *********** Evaluation PSpice (Nov 1999) **************

 * C:\Users\User\Desktop\lab simulate file\exp 02.sch


 ****     SMALL SIGNAL BIAS SOLUTION       TEMPERATURE =   27.000 DEG C


******************************************************************************



 NODE   VOLTAGE     NODE   VOLTAGE     NODE   VOLTAGE     NODE   VOLTAGE


($N_0001)     .7268                   ($N_0002)    3.0000                   




    VOLTAGE SOURCE CURRENTS
    NAME         CURRENT

    V_E         -2.273E-02

    TOTAL POWER DISSIPATION   6.82E-02  WATTS


**** 09/26/20 11:29:39 *********** Evaluation PSpice (Nov 1999) **************

 * C:\Users\User\Desktop\lab simulate file\exp 02.sch


 ****     OPERATING POINT INFORMATION      TEMPERATURE =   27.000 DEG C


******************************************************************************





          JOB CONCLUDED

          TOTAL JOB TIME             .03
