
**** 01/15/21 21:14:02 *********** Evaluation PSpice (Nov 1999) **************

 * C:\Users\User\Desktop\lab report (group-4)\Schematic5 lab251.sch


 ****     CIRCUIT DESCRIPTION


******************************************************************************




* Schematics Version 9.1 - Web Update 1
* Fri Jan 15 21:13:58 2021



** Analysis setup **
.tran 0.5m 4m
.OP 


* From [PSPICE NETLIST] section of pspiceev.ini:
.lib "nom.lib"

.INC "Schematic5 lab251.net"

**** INCLUDING "Schematic5 lab251.net" ****
* Schematics Netlist *



X_U1         0 $N_0001 $N_0002 $N_0003 $N_0004 uA741
C_C1         $N_0001 $N_0004  0.1u  
R_R1         $N_0007 $N_0001  1.7k  
V_V8         0 $N_0003 5V
V_V7         $N_0002 0 5V
V_Vs         $N_0007 0 DC 0V AC 1V
+PULSE -2V 2v 0.001n 0.1n 0.1n 0.5m 1m

**** RESUMING "Schematic5 lab251.cir" ****
.INC "Schematic5 lab251.als"



**** INCLUDING "Schematic5 lab251.als" ****
* Schematics Aliases *

.ALIASES
X_U1            U1(+=0 -=$N_0001 V+=$N_0002 V-=$N_0003 OUT=$N_0004 )
C_C1            C1(1=$N_0001 2=$N_0004 )
R_R1            R1(1=$N_0007 2=$N_0001 )
V_V8            V8(+=0 -=$N_0003 )
V_V7            V7(+=$N_0002 -=0 )
V_Vs            Vs(+=$N_0007 -=0 )
.ENDALIASES


**** RESUMING "Schematic5 lab251.cir" ****
.probe


.END

**** 01/15/21 21:14:02 *********** Evaluation PSpice (Nov 1999) **************

 * C:\Users\User\Desktop\lab report (group-4)\Schematic5 lab251.sch


 ****     Diode MODEL PARAMETERS


******************************************************************************




               X_U1.dx         
          IS  800.000000E-18 
          RS    1            


**** 01/15/21 21:14:02 *********** Evaluation PSpice (Nov 1999) **************

 * C:\Users\User\Desktop\lab report (group-4)\Schematic5 lab251.sch


 ****     BJT MODEL PARAMETERS


******************************************************************************




               X_U1.qx         
               NPN             
          IS  800.000000E-18 
          BF   93.75         
          NF    1            
          BR    1            
          NR    1            
          CN    2.42         
           D     .87         


**** 01/15/21 21:14:02 *********** Evaluation PSpice (Nov 1999) **************

 * C:\Users\User\Desktop\lab report (group-4)\Schematic5 lab251.sch


 ****     SMALL SIGNAL BIAS SOLUTION       TEMPERATURE =   27.000 DEG C


******************************************************************************



 NODE   VOLTAGE     NODE   VOLTAGE     NODE   VOLTAGE     NODE   VOLTAGE


(X_U1.6)    -.0029 (X_U1.7)    4.4478 (X_U1.8)    4.4478 (X_U1.9)    0.0000     

($N_0001)-135.3E-06                   ($N_0002)    5.0000                       

($N_0003)   -5.0000                   ($N_0004)    4.4478                       

($N_0007)    0.0000                   (X_U1.10)    -.6077                       

(X_U1.11)    4.9604                   (X_U1.12)    4.9603                       

(X_U1.13)    -.5939                   (X_U1.14)    -.5938                       

(X_U1.53)    4.0000                   (X_U1.54)   -4.0000                       

(X_U1.90) 26.42E-06                   (X_U1.91)   40.0000                       

(X_U1.92)  -40.0000                   (X_U1.99)    0.0000                   




    VOLTAGE SOURCE CURRENTS
    NAME         CURRENT

    V_V8        -5.658E-04
    V_V7        -5.656E-04
    V_Vs        -7.962E-08
    X_U1.vb     -2.909E-08
    X_U1.vc     -2.641E-08
    X_U1.ve      8.449E-12
    X_U1.vlim    2.642E-08
    X_U1.vlp    -4.000E-11
    X_U1.vln    -4.000E-11

    TOTAL POWER DISSIPATION   5.66E-03  WATTS


**** 01/15/21 21:14:02 *********** Evaluation PSpice (Nov 1999) **************

 * C:\Users\User\Desktop\lab report (group-4)\Schematic5 lab251.sch


 ****     OPERATING POINT INFORMATION      TEMPERATURE =   27.000 DEG C


******************************************************************************






**** VOLTAGE-CONTROLLED CURRENT SOURCES


NAME         X_U1.ga     X_U1.gcm  
I-SOURCE     2.547E-08  -3.623E-09


**** VOLTAGE-CONTROLLED VOLTAGE SOURCES


NAME         X_U1.egnd 
V-SOURCE     0.000E+00
I-SOURCE    -7.198E-08


**** CURRENT-CONTROLLED CURRENT SOURCES


NAME         X_U1.fb   
I-SOURCE    -4.463E-02


**** CURRENT-CONTROLLED VOLTAGE SOURCES


NAME         X_U1.hlim 
V-SOURCE     2.642E-05
I-SOURCE    -5.283E-17


**** DIODES


NAME         X_U1.dc     X_U1.de     X_U1.dlp    X_U1.dln    X_U1.dp   
MODEL        X_U1.dx     X_U1.dx     X_U1.dx     X_U1.dx     X_U1.dx   
ID           2.64E-08   -8.45E-12   -4.00E-11   -4.00E-11   -1.00E-11 
VD           4.48E-01   -8.45E+00   -4.00E+01   -4.00E+01   -1.00E+01 
REQ          9.79E+05    1.00E+12    1.00E+12    1.00E+12    1.00E+12 
CAP          0.00E+00    0.00E+00    0.00E+00    0.00E+00    0.00E+00 


**** BIPOLAR JUNCTION TRANSISTORS


NAME         X_U1.q1     X_U1.q2   
MODEL        X_U1.qx     X_U1.qx   
IB           7.96E-08    7.99E-08 
IC           7.46E-06    7.49E-06 
VBE          5.94E-01    5.94E-01 
VBC         -4.96E+00   -4.96E+00 
VCE          5.55E+00    5.55E+00 
BETADC       9.38E+01    9.38E+01 
GM           2.89E-04    2.90E-04 
RPI          3.25E+05    3.24E+05 
RX           0.00E+00    0.00E+00 
RO           1.00E+12    1.00E+12 
CBE          0.00E+00    0.00E+00 
CBC          0.00E+00    0.00E+00 
CJS          0.00E+00    0.00E+00 
BETAAC       9.38E+01    9.38E+01 
CBX/CBX2     0.00E+00    0.00E+00 
FT/FT2       4.59E+15    4.61E+15 


**** 01/15/21 21:14:02 *********** Evaluation PSpice (Nov 1999) **************

 * C:\Users\User\Desktop\lab report (group-4)\Schematic5 lab251.sch


 ****     INITIAL TRANSIENT SOLUTION       TEMPERATURE =   27.000 DEG C


******************************************************************************



 NODE   VOLTAGE     NODE   VOLTAGE     NODE   VOLTAGE     NODE   VOLTAGE


(X_U1.6)   -1.4956 (X_U1.7)    4.6141 (X_U1.8)    4.6141 (X_U1.9)    0.0000     

($N_0001)   -2.0000                   ($N_0002)    5.0000                       

($N_0003)   -5.0000                   ($N_0004)    4.6133                       

($N_0007)   -2.0000                   (X_U1.10)    -.6395                       

(X_U1.11)    5.0000                   (X_U1.12)    4.9207                       

(X_U1.13)    -.6395                   (X_U1.14)    -.6117                       

(X_U1.53)    4.0000                   (X_U1.54)   -4.0000                       

(X_U1.90)     .0159                   (X_U1.91)   40.0000                       

(X_U1.92)  -40.0000                   (X_U1.99)    0.0000                   




    VOLTAGE SOURCE CURRENTS
    NAME         CURRENT

    V_V8        -5.658E-04
    V_V7        -5.498E-04
    V_Vs         7.015E-12
    X_U1.vb     -1.496E-05
    X_U1.vc     -1.586E-05
    X_U1.ve      8.614E-12
    X_U1.vlim    1.586E-05
    X_U1.vlp    -3.998E-11
    X_U1.vln    -4.002E-11

    TOTAL POWER DISSIPATION   5.59E-03  WATTS



          JOB CONCLUDED

          TOTAL JOB TIME             .05
